使用 `i2ctransfer` 工具读取 IMX415 寄存器是一个在调试和验证时非常有用的方法。IMX415 是一个 I2C 从设备，其寄存器通常为 16 位地址。

### 基础原理

对于像 IMX415 这样的传感器，其寄存器地址通常是 16 位（2字节）的。读取过程通常分为两步：

1. **设置寄存器地址**：首先进行一次**写操作**，告诉传感器你接下来想要读取的寄存器起始地址。
2. **读取数据**：然后进行一次**读操作**，从刚才设置的地址开始读取一个或多个字节的数据。

`i2ctransfer` 工具可以很方便地将这两个步骤合并在一个命令中。

### 语法详解

`i2ctransfer` 用于读取的基本语法格式如下：

bash

```
i2ctransfer -f -y <i2c_bus_number> w<write_length>@<slave_address> <register_address_high> <register_address_low> r<read_length>
```



- `-f`： 强制访问设备，即使它正在被驱动使用（使用时需小心）。
- `-y`： 禁用交互模式，直接执行。没有这个选项，它会等待你确认。
- `<i2c_bus_number>`： I2C 总线编号，例如 `1`、`8` 等。
- `<slave_address>`： IMX415 的 I2C 从设备地址，通常是 `0x1a`（但请务必通过 `i2cdetect` 确认）。
- `w<write_length>@...`： 表示一个写序列。`<write_length>` 是写入的字节数。对于 16 位地址，这里是 `2`。
- `<register_address_high>`： 要读取的 16 位寄存器地址的高字节。
- `<register_address_low>`： 要读取的 16 位寄存器地址的低字节。
- `r<read_length>`： 表示一个读序列。`<read_length>` 是要读取的字节数。

### 读操作示例

假设我们要从 IMX415 的寄存器 `0x3003`（即我们之前讨论的 `XMASTER` 寄存器）读取 1 个字节的数据。

**步骤 1：确认 I2C 总线和设备地址**

首先，找到 IMX415 连接在哪个 I2C 总线上，并确认其地址。

bash

```
# 查看系统有哪些I2C总线
ls /dev/i2c-*

# 假设总线是 i2c-8，扫描该总线上的设备
i2cdetect -y 8
```



在扫描结果中，你应该能看到 IMX415 的地址。假设它是 `0x1a`。

**步骤 2：构建读取命令**

寄存器地址 `0x3003`：

- 高字节 = `0x30`
- 低字节 = `0x03`

我们要读取 **1** 个字节。

最终的命令如下：

bash

```
i2ctransfer -f -y 8 w2@0x1a 0x30 0x03 r1
```



**命令分解：**

- `-f -y 8`： 强制在总线 8 上执行，无需确认。
- `w2@0x1a 0x30 0x03`： 向从设备 `0x1a` 写入 2 个字节 `0x30` 和 `0x03`（即设置寄存器地址为 `0x3003`）。
- `r1`： 然后从该地址读取 1 个字节。

**步骤 3：执行并解析结果**

执行命令后，你会看到类似这样的输出：

bash

```
0x00
```



这表示寄存器 `0x3003` 的值是 `0x00`。根据数据手册，这证实了传感器当前处于 **主模式**。

### 更多示例

**1. 读取芯片ID (Chip ID)**
芯片ID寄存器地址通常是 `0x3016` 和 `0x3017`（请以IMX415官方数据手册为准）。

bash

```
# 读取 0x3016， 假设芯片ID高字节在此
i2ctransfer -f -y 8 w2@0x1a 0x30 0x16 r1
# 输出可能为 0x15

# 读取 0x3017， 假设芯片ID低字节在此
i2ctransfer -f -y 8 w2@0x1a 0x30 0x17 r1
# 输出可能为 0x67
```



组合起来，芯片 ID 可能是 `0x1567`。

**2. 一次性读取多个连续寄存器**
例如，从地址 `0x3000` 开始连续读取 4 个字节。

bash

```
i2ctransfer -f -y 8 w2@0x1a 0x30 0x00 r4
```



输出可能会是：

bash

```
0x12 0x34 0x56 0x78
```



这分别对应寄存器 `0x3000`, `0x3001`, `0x3002`, `0x3003` 的值。

### 写操作示例

假设我们要将 IMX415 的 `XMASTER` 寄存器（地址 `0x3003`）设置为 `0x01`（从模式）。

**步骤 1：确认 I2C 总线和设备地址（与读操作相同）**

假设：

- 总线： `i2c-8`
- 设备地址： `0x1a`

**步骤 2：构建写入命令**

我们要写入的内容是：

- 寄存器地址： `0x3003` -> `0x30` (高), `0x03` (低)
- 数据： `0x01`

**总共要写入的字节数** = 2 (地址字节) + 1 (数据字节) = **3**

最终的命令如下：

bash

```
i2ctransfer -f -y 8 w3@0x1a 0x30 0x03 0x01
```



**命令分解：**

- `w3@0x1a`： 向从设备 `0x1a` 写入 **3** 个字节。
- `0x30 0x03`： 前两个字节是目标寄存器地址 `0x3003`。
- `0x01`： 第三个字节是要写入的数据。

如果命令执行成功，**它将不会有任何输出**。你可以通过后续的读取操作来验证写入是否成功。

### 更多示例

**1. 向多个连续寄存器写入数据**

假设要向寄存器 `0x3000` 写入 `0xAB`，向 `0x3001` 写入 `0xCD`。

**方法一：使用两条单独的命令（推荐，更清晰）**

bash

```
# 写入 0x3000
i2ctransfer -f -y 8 w3@0x1a 0x30 0x00 0xAB
# 写入 0x3001
i2ctransfer -f -y 8 w3@0x1a 0x30 0x01 0xCD
```



**方法二：使用一条命令（需要器件支持自动地址递增）**
很多传感器支持自动递增写入，即写入一个地址后，下一个数据会自动写入到下一个地址。

bash

```
# 从地址 0x3000 开始，连续写入 2 个字节
i2ctransfer -f -y 8 w4@0x1a 0x30 0x00 0xAB 0xCD
```



这会将 `0xAB` 写入 `0x3000`，将 `0xCD` 写入 `0x3001`。

**2. 写入 16 位数据**

有些寄存器（如曝光时间寄存器 `0x3500` 和 `0x3501`）是 16 位的。假设我们要设置曝光时间为 `0x0456`。

- 寄存器 `0x3500` 存放高 8 位 (`0x04`)
- 寄存器 `0x3501` 存放低 8 位 (`0x56`)

bash

```
# 写入曝光时间高字节
i2ctransfer -f -y 8 w3@0x1a 0x35 0x00 0x04
# 写入曝光时间低字节
i2ctransfer -f -y 8 w3@0x1a 0x35 0x01 0x56
```



### 完整的配置验证流程

一个标准的流程是 **“写-读-验证”**。

1. **写入配置**：

   bash

   ```
   i2ctransfer -f -y 8 w3@0x1a 0x30 0x03 0x01
   ```

   

2. **读取验证**：

   bash

   ```
   i2ctransfer -f -y 8 w2@0x1a 0x30 0x03 r1
   ```

   

   如果输出是 `0x01`，说明写入成功，传感器已处于从模式。